T4D70 298:309 SEGGER J-Link V4.90 Log File (0001ms, 7789ms total)
T4D70 298:309 DLL Compiled: Jul 28 2014 10:35:20 (0001ms, 7789ms total)
T4D70 298:309 Logging started @ 2019-08-21 20:04 (0001ms, 7789ms total)
T4D70 298:310 JLINK_SetWarnOutHandler(...) (0000ms, 7789ms total)
T4D70 298:310 JLINK_OpenEx(...)
Firmware: J-Link ARM V8 compiled Nov 28 2014 13:44:46
Hardware: V8.00
S/N: 87461523
Feature(s): RDI, FlashBP, FlashDL, JFlash, GDBFullDevice "UNSPECIFIED" selected (0 KB flash, 0 KB RAM).  returns O.K. (0259ms, 8048ms total)
T4D70 298:569 JLINK_GetEmuCaps()  returns 0xB9FF7BBF (0000ms, 8048ms total)
T4D70 298:570 JLINK_TIF_GetAvailable(...) (0000ms, 8048ms total)
T4D70 298:570 JLINK_SetErrorOutHandler(...) (0000ms, 8048ms total)
T4D70 298:570 JLINK_ExecCommand("ProjectFile = "F:\SkyDrive\OtvoreniProjekti\HotelSaplast\fw\KontrolerHotela\HCBL020318\Project\JLinkSettings.ini"", ...)Device "UNSPECIFIED" selected (0 KB flash, 0 KB RAM).  returns 0x00 (0000ms, 8048ms total)
T4D70 298:570 JLINK_ExecCommand("Device = STM32F429IGTx", ...)Device "UNSPECIFIED" selected (0 KB flash, 0 KB RAM).  returns 0x00 (0000ms, 8049ms total)
T4D70 298:571 JLINK_ExecCommand("DisableConnectionTimeout", ...)  returns 0x01 (0000ms, 8049ms total)
T4D70 298:571 JLINK_GetHardwareVersion()  returns 0x13880 (0000ms, 8049ms total)
T4D70 298:571 JLINK_GetDLLVersion()  returns 49000 (0000ms, 8049ms total)
T4D70 298:571 JLINK_GetFirmwareString(...) (0000ms, 8049ms total)
T4D70 298:571 JLINK_GetDLLVersion()  returns 49000 (0000ms, 8049ms total)
T4D70 298:571 JLINK_GetCompileDateTime() (0000ms, 8049ms total)
T4D70 298:571 JLINK_GetFirmwareString(...) (0000ms, 8049ms total)
T4D70 298:571 JLINK_GetHardwareVersion()  returns 0x13880 (0000ms, 8049ms total)
T4D70 298:571 JLINK_TIF_Select(JLINKARM_TIF_JTAG)  returns 0x00 (0001ms, 8050ms total)
T4D70 298:572 JLINK_SetSpeed(5000) (0000ms, 8050ms total)
T4D70 298:572 JLINK_GetIdData(...) >0x2F8 JTAG>TotalIRLen = 9, IRPrint = 0x0011 >0x30 JTAG> >0x210 JTAG> >0x70 JTAG> >0x40 JTAG> >0x40 JTAG> >0x40 JTAG> >0x50 JTAG> >0x80 JTAG> >0x40 JTAG> >0x30 JTAG> >0x40 JTAG> >0x40 JTAG> >0x30 JTAG> >0x40 JTAG> >0x50 JTAG>Found Cortex-M4 r0p1, Little endian. -- CPU_WriteMem(4 bytes @ 0xE0002000) -- CPU_ReadMem(4 bytes @ 0xE000EDF0) -- CPU_ReadMem(4 bytes @ 0xE0002000)FPUnit: 6 code (BP) slots and 2 literal slots -- CPU_ReadMem(4 bytes @ 0xE000EDFC)
 -- CPU_ReadMem(4 bytes @ 0xE0001000) -- CPU_WriteMem(4 bytes @ 0xE0001000) -- CPU_ReadMem(4 bytes @ 0xE00FF010)TPIU fitted. -- CPU_ReadMem(4 bytes @ 0xE00FF014)ETM fitted. -- CPU_ReadMem(4 bytes @ 0xE00FF018) ScanLen=9 NumDevices=2 aId[0]=0x4BA00477 aIrRead[0]=0 aScanLen[0]=0 aScanRead[0]=0 (0014ms, 8064ms total)
T4D70 298:586 JLINK_JTAG_GetDeviceID(DeviceIndex = 0)  returns 0x4BA00477 (0000ms, 8064ms total)
T4D70 298:586 JLINK_JTAG_GetDeviceInfo(DeviceIndex = 0)  returns 0x00 (0000ms, 8064ms total)
T4D70 298:586 JLINK_JTAG_GetDeviceID(DeviceIndex = 1)  returns 0x6419041 (0000ms, 8064ms total)
T4D70 298:586 JLINK_JTAG_GetDeviceInfo(DeviceIndex = 1)  returns 0x00 (0000ms, 8064ms total)
T4D70 298:586 JLINK_GetDLLVersion()  returns 49000 (0000ms, 8064ms total)
T4D70 298:586 JLINK_CORE_GetFound()  returns 0xE0000FF (0000ms, 8064ms total)
T4D70 298:586 JLINK_GetDebugInfo(0x100) -- Value=0xE00FF003  returns 0x00 (0000ms, 8064ms total)
T4D70 298:586 JLINK_GetDebugInfo(0x101)  returns 0xFFFFFFFF (0000ms, 8064ms total)
T4D70 298:586 JLINK_ReadMemEx(0xE0041FF0, 0x0010 Bytes, ..., AccessWidth = 33554436) -- CPU is running -- CPU_ReadMem(16 bytes @ 0xE0041FF0) - Data: 0D 00 00 00 90 00 00 00 05 00 00 00 B1 00 00 00  returns 0x10 (0001ms, 8065ms total)
T4D70 298:587 JLINK_ReadMemEx(0xE0041FD0, 0x0020 Bytes, ..., AccessWidth = 33554436) -- CPU is running -- CPU_ReadMem(32 bytes @ 0xE0041FD0) - Data: 04 00 00 00 00 00 00 00 00 00 00 00 00 00 00 00 ...  returns 0x20 (0001ms, 8066ms total)
T4D70 298:588 JLINK_GetDebugInfo(0x102)  returns 0xFFFFFFFF (0000ms, 8066ms total)
T4D70 298:588 JLINK_GetDebugInfo(0x103)  returns 0xFFFFFFFF (0000ms, 8066ms total)
T4D70 298:588 JLINK_ReadMemEx(0xE0040FF0, 0x0010 Bytes, ..., AccessWidth = 33554436) -- CPU is running -- CPU_ReadMem(16 bytes @ 0xE0040FF0) - Data: 0D 00 00 00 90 00 00 00 05 00 00 00 B1 00 00 00  returns 0x10 (0001ms, 8067ms total)
T4D70 298:589 JLINK_GetDebugInfo(0x104)  returns 0xFFFFFFFF (0000ms, 8067ms total)
T4D70 298:589 JLINK_GetDebugInfo(0x105)  returns 0xFFFFFFFF (0000ms, 8067ms total)
T4D70 298:589 JLINK_GetDebugInfo(0x106)  returns 0xFFFFFFFF (0000ms, 8067ms total)
T4D70 298:589 JLINK_GetDebugInfo(0x107)  returns 0xFFFFFFFF (0000ms, 8067ms total)
T4D70 298:589 JLINK_GetDebugInfo(0x10C)  returns 0xFFFFFFFF (0000ms, 8067ms total)
T4D70 298:589 JLINK_GetDebugInfo(0x01)  returns 0xFFFFFFFF (0000ms, 8067ms total)
T4D70 298:589 JLINK_GetDeviceFamily()  returns 14 (0000ms, 8067ms total)
T4D70 298:589 JLINK_ReadMemU32(0xE000ED00, 0x0001 Items, ...) -- CPU is running -- CPU_ReadMem(4 bytes @ 0xE000ED00) - Data: 41 C2 0F 41  returns 0x01 (0000ms, 8067ms total)
T4D70 298:589 JLINK_GetDebugInfo(0x10F)  returns 0xFFFFFFFF (0000ms, 8067ms total)
T4D70 298:589 JLINK_Halt()  returns 0x00 (0003ms, 8070ms total)
T4D70 298:592 JLINK_ReadMemU32(0xE000EDF0, 0x0001 Items, ...) -- CPU_ReadMem(4 bytes @ 0xE000EDF0) - Data: 03 00 03 00  returns 0x01 (0001ms, 8071ms total)
T4D70 298:593 JLINK_WriteU32(0xE000EDF0, 0xA05F0003) -- CPU_WriteMem(4 bytes @ 0xE000EDF0)  returns 0x00 (0000ms, 8071ms total)
T4D70 298:593 JLINK_WriteU32(0xE000EDFC, 0x01000000) -- CPU_WriteMem(4 bytes @ 0xE000EDFC)  returns 0x00 (0001ms, 8072ms total)
T4D70 298:594 JLINK_GetHWStatus(...)  returns 0x00 (0000ms, 8072ms total)
T4D70 298:594 JLINK_GetNumBPUnits(Type = 0xFFFFFF00)  returns 0x06 (0000ms, 8072ms total)
T4D70 298:594 JLINK_GetNumBPUnits(Type = 0xF0)  returns 0x2000 (0000ms, 8072ms total)
T4D70 298:594 JLINK_GetNumWPUnits()  returns 0x04 (0000ms, 8072ms total)
T4D70 298:594 JLINK_GetSpeed()  returns 0x12C0 (0001ms, 8073ms total)
T4D70 298:595 JLINK_ReadMemU32(0xE000E004, 0x0001 Items, ...) -- CPU_ReadMem(4 bytes @ 0xE000E004) - Data: 02 00 00 00  returns 0x01 (0000ms, 8073ms total)
T4D70 298:595 JLINK_ReadMemU32(0xE000E004, 0x0001 Items, ...) -- CPU_ReadMem(4 bytes @ 0xE000E004) - Data: 02 00 00 00  returns 0x01 (0001ms, 8074ms total)
T4D70 298:596 JLINK_WriteMemEx(0xE0001000, 0x001C Bytes, ..., AccessWidth = 33554436) - Data: 01 00 00 00 00 00 00 00 00 00 00 00 00 00 00 00 ... -- CPU_WriteMem(28 bytes @ 0xE0001000)  returns 0x1C (0000ms, 8074ms total)
T4D70 298:596 JLINK_ReadReg(R15 (PC))  returns 0x08017E7E (0001ms, 8075ms total)
T4D70 298:597 JLINK_ReadReg(XPSR)  returns 0x21000000 (0000ms, 8075ms total)
T4D70 298:607 JLINK_ReadMemEx(0xE0001004, 0x0004 Bytes, ..., AccessWidth = 33554432)Mis-aligned memory read: Address: 0xE0001004, NumBytes: 4, Alignment: 2 (Halfword-aligned)
  ***** Mis-aligned memory read: Address: 0xE0001004, NumBytes: 4, Alignment: 2 (Halfword-aligned) -- CPU_ReadMem(4 bytes @ 0xE0001004) - Data: 00 00 00 00  returns 0x04 (0001ms, 8076ms total)
T4D70 298:678 JLINK_SetResetType(JLINKARM_RESET_TYPE_NORMAL)  returns JLINKARM_RESET_TYPE_NORMAL (0000ms, 8076ms total)
T4D70 298:678 JLINK_Reset() -- CPU_WriteMem(4 bytes @ 0xE000EDF0) -- CPU_WriteMem(4 bytes @ 0xE000EDFC) -- CPU_WriteMem(4 bytes @ 0xE000ED0C) -- CPU_ReadMem(4 bytes @ 0xE000EDF0) -- CPU_ReadMem(4 bytes @ 0xE000EDF0) -- CPU_WriteMem(4 bytes @ 0xE000EDF0) -- CPU_WriteMem(4 bytes @ 0xE000EDFC) -- CPU is running -- CPU_ReadMem(4 bytes @ 0xE000EDF0) >0x80 JTAG> >0x40 JTAG> >0x30 JTAG> >0x40 JTAG> >0x50 JTAG> >0x40 JTAG> -- CPU_WriteMem(4 bytes @ 0xE000EDFC) -- CPU_WriteMem(4 bytes @ 0xE0001028)
 -- CPU_WriteMem(4 bytes @ 0xE0001038) -- CPU_WriteMem(4 bytes @ 0xE0001048) -- CPU_WriteMem(4 bytes @ 0xE0001058) -- CPU_WriteMem(4 bytes @ 0xE0002000) -- CPU_ReadMem(4 bytes @ 0xE000EDFC) -- CPU_ReadMem(4 bytes @ 0xE0001000) (0025ms, 8101ms total)
T4D70 298:703 JLINK_ReadReg(R15 (PC))  returns 0x080001C0 (0000ms, 8101ms total)
T4D70 298:703 JLINK_ReadReg(XPSR)  returns 0x01000000 (0000ms, 8101ms total)
T4D70 298:703 JLINK_ReadReg(R0)  returns 0x00000000 (0000ms, 8101ms total)
T4D70 298:703 JLINK_ReadReg(R1)  returns 0x00000000 (0000ms, 8101ms total)
T4D70 298:703 JLINK_ReadReg(R2)  returns 0x00000000 (0000ms, 8101ms total)
T4D70 298:704 JLINK_ReadReg(R3)  returns 0x00000000 (0000ms, 8102ms total)
T4D70 298:704 JLINK_ReadReg(R4)  returns 0x00000000 (0000ms, 8102ms total)
T4D70 298:704 JLINK_ReadMemU32(0xE0001004, 0x0001 Items, ...) -- CPU_ReadMem(4 bytes @ 0xE0001004) - Data: B3 12 00 00  returns 0x01 (0000ms, 8102ms total)
T4D70 298:932 JLINK_ReadMemEx(0x080001C0, 0x003C Bytes, ..., AccessWidth = 33554432)Mis-aligned memory read: Address: 0x080001C0, NumBytes: 60, Alignment: 2 (Halfword-aligned)
  ***** Mis-aligned memory read: Address: 0x080001C0, NumBytes: 60, Alignment: 2 (Halfword-aligned) -- CPU_ReadMem(60 bytes @ 0x080001C0) - Data: 06 48 80 47 06 48 00 47 FE E7 FE E7 FE E7 FE E7 ...  returns 0x3C (0001ms, 8103ms total)
T4D70 298:933 JLINK_ReadMemEx(0x080001C0, 0x0002 Bytes, ..., AccessWidth = 33554432)Mis-aligned memory read: Address: 0x080001C0, NumBytes: 2, Alignment: 2 (Halfword-aligned)
  ***** Mis-aligned memory read: Address: 0x080001C0, NumBytes: 2, Alignment: 2 (Halfword-aligned) -- CPU_ReadMem(2 bytes @ 0x080001C0) - Data: 06 48  returns 0x02 (0001ms, 8104ms total)
T4D70 298:934 JLINK_ReadMemEx(0x080001C2, 0x0002 Bytes, ..., AccessWidth = 33554432)Mis-aligned memory read: Address: 0x080001C2, NumBytes: 2, Alignment: 2 (Halfword-aligned)
  ***** Mis-aligned memory read: Address: 0x080001C2, NumBytes: 2, Alignment: 2 (Halfword-aligned) -- CPU_ReadMem(2 bytes @ 0x080001C2) - Data: 80 47  returns 0x02 (0000ms, 8104ms total)
T4D70 298:934 JLINK_ReadMemEx(0x080001C2, 0x0002 Bytes, ..., AccessWidth = 33554432)Mis-aligned memory read: Address: 0x080001C2, NumBytes: 2, Alignment: 2 (Halfword-aligned)
  ***** Mis-aligned memory read: Address: 0x080001C2, NumBytes: 2, Alignment: 2 (Halfword-aligned) -- CPU_ReadMem(2 bytes @ 0x080001C2) - Data: 80 47  returns 0x02 (0001ms, 8105ms total)
T4D70 298:935 JLINK_ReadMemEx(0x080001C4, 0x003C Bytes, ..., AccessWidth = 33554432)Mis-aligned memory read: Address: 0x080001C4, NumBytes: 60, Alignment: 2 (Halfword-aligned)
  ***** Mis-aligned memory read: Address: 0x080001C4, NumBytes: 60, Alignment: 2 (Halfword-aligned) -- CPU_ReadMem(60 bytes @ 0x080001C4) - Data: 06 48 00 47 FE E7 FE E7 FE E7 FE E7 FE E7 FE E7 ...  returns 0x3C (0001ms, 8106ms total)
T4D70 298:936 JLINK_ReadMemEx(0x080001C4, 0x0002 Bytes, ..., AccessWidth = 33554432)Mis-aligned memory read: Address: 0x080001C4, NumBytes: 2, Alignment: 2 (Halfword-aligned)
  ***** Mis-aligned memory read: Address: 0x080001C4, NumBytes: 2, Alignment: 2 (Halfword-aligned) -- CPU_ReadMem(2 bytes @ 0x080001C4) - Data: 06 48  returns 0x02 (0000ms, 8106ms total)
T4D70 300:033 JLINK_ReadMemEx(0x080001C4, 0x003C Bytes, ..., AccessWidth = 33554432)Mis-aligned memory read: Address: 0x080001C4, NumBytes: 60, Alignment: 2 (Halfword-aligned)
  ***** Mis-aligned memory read: Address: 0x080001C4, NumBytes: 60, Alignment: 2 (Halfword-aligned) -- CPU_ReadMem(60 bytes @ 0x080001C4) - Data: 06 48 00 47 FE E7 FE E7 FE E7 FE E7 FE E7 FE E7 ...  returns 0x3C (0001ms, 8107ms total)
T4D70 300:034 JLINK_ReadMemEx(0x080001C4, 0x0002 Bytes, ..., AccessWidth = 33554432)Mis-aligned memory read: Address: 0x080001C4, NumBytes: 2, Alignment: 2 (Halfword-aligned)
  ***** Mis-aligned memory read: Address: 0x080001C4, NumBytes: 2, Alignment: 2 (Halfword-aligned) -- CPU_ReadMem(2 bytes @ 0x080001C4) - Data: 06 48  returns 0x02 (0001ms, 8108ms total)
T4D70 300:035 JLINK_ReadMemEx(0x080001C6, 0x0002 Bytes, ..., AccessWidth = 33554432)Mis-aligned memory read: Address: 0x080001C6, NumBytes: 2, Alignment: 2 (Halfword-aligned)
  ***** Mis-aligned memory read: Address: 0x080001C6, NumBytes: 2, Alignment: 2 (Halfword-aligned) -- CPU_ReadMem(2 bytes @ 0x080001C6) - Data: 00 47  returns 0x02 (0000ms, 8108ms total)
T1860 300:396 JLINK_ReadMemEx(0x080001C0, 0x0002 Bytes, ..., AccessWidth = 33554432)Mis-aligned memory read: Address: 0x080001C0, NumBytes: 2, Alignment: 2 (Halfword-aligned)
  ***** Mis-aligned memory read: Address: 0x080001C0, NumBytes: 2, Alignment: 2 (Halfword-aligned) -- CPU_ReadMem(2 bytes @ 0x080001C0) - Data: 06 48  returns 0x02 (0001ms, 8109ms total)
T1860 300:397 JLINK_SetBPEx(Addr = 0x08003CD8, Type = 0xFFFFFFF2)  returns 0x00000001 (0000ms, 8109ms total)
T1860 300:397 JLINK_Go() -- CPU_WriteMem(4 bytes @ 0xE0002008) -- CPU_WriteMem(4 bytes @ 0xE000200C) -- CPU_WriteMem(4 bytes @ 0xE0002010) -- CPU_WriteMem(4 bytes @ 0xE0002014) -- CPU_WriteMem(4 bytes @ 0xE0002018) -- CPU_WriteMem(4 bytes @ 0xE000201C) -- CPU_WriteMem(4 bytes @ 0xE0001004) (0004ms, 8113ms total)
T1860 300:502 JLINK_IsHalted()  returns TRUE (0003ms, 8116ms total)
T1860 300:505 JLINK_Halt()  returns 0x00 (0000ms, 8113ms total)
T1860 300:505 JLINK_IsHalted()  returns TRUE (0000ms, 8113ms total)
T1860 300:505 JLINK_IsHalted()  returns TRUE (0000ms, 8113ms total)
T1860 300:505 JLINK_IsHalted()  returns TRUE (0000ms, 8113ms total)
T1860 300:505 JLINK_ReadReg(R15 (PC))  returns 0x08003CD8 (0000ms, 8113ms total)
T1860 300:505 JLINK_ReadReg(XPSR)  returns 0x61000000 (0000ms, 8113ms total)
T1860 300:505 JLINK_ClrBPEx(BPHandle = 0x00000001)  returns 0x00 (0000ms, 8113ms total)
T1860 300:505 JLINK_ReadMemU32(0xE000ED30, 0x0001 Items, ...) -- CPU_ReadMem(4 bytes @ 0xE000ED30) - Data: 03 00 00 00  returns 0x01 (0000ms, 8113ms total)
T1860 300:505 JLINK_ReadMemU32(0xE0001028, 0x0001 Items, ...) -- CPU_ReadMem(4 bytes @ 0xE0001028) - Data: 00 00 00 00  returns 0x01 (0001ms, 8114ms total)
T1860 300:506 JLINK_ReadMemU32(0xE0001038, 0x0001 Items, ...) -- CPU_ReadMem(4 bytes @ 0xE0001038) - Data: 00 02 00 00  returns 0x01 (0001ms, 8115ms total)
T1860 300:507 JLINK_ReadMemU32(0xE0001048, 0x0001 Items, ...) -- CPU_ReadMem(4 bytes @ 0xE0001048) - Data: 00 00 00 00  returns 0x01 (0000ms, 8115ms total)
T1860 300:507 JLINK_ReadMemU32(0xE0001058, 0x0001 Items, ...) -- CPU_ReadMem(4 bytes @ 0xE0001058) - Data: 00 00 00 00  returns 0x01 (0001ms, 8116ms total)
T1860 300:508 JLINK_ReadReg(R0)  returns 0x08003CD9 (0000ms, 8116ms total)
T1860 300:508 JLINK_ReadReg(R1)  returns 0x20000F90 (0000ms, 8116ms total)
T1860 300:508 JLINK_ReadReg(R2)  returns 0x00000000 (0000ms, 8116ms total)
T1860 300:508 JLINK_ReadReg(R3)  returns 0x0800428F (0000ms, 8116ms total)
T1860 300:508 JLINK_ReadReg(R4)  returns 0x08005610 (0000ms, 8116ms total)
T1860 300:508 JLINK_ReadReg(R5)  returns 0x08005610 (0000ms, 8116ms total)
T1860 300:508 JLINK_ReadReg(R6)  returns 0x00000000 (0000ms, 8116ms total)
T1860 300:508 JLINK_ReadReg(R7)  returns 0x00000000 (0000ms, 8116ms total)
T1860 300:508 JLINK_ReadReg(R8)  returns 0x00000000 (0000ms, 8116ms total)
T1860 300:508 JLINK_ReadReg(R9)  returns 0x00000000 (0000ms, 8116ms total)
T1860 300:508 JLINK_ReadReg(R10)  returns 0x00000000 (0000ms, 8116ms total)
T1860 300:508 JLINK_ReadReg(R11)  returns 0x00000000 (0000ms, 8116ms total)
T1860 300:508 JLINK_ReadReg(R12)  returns 0x00000000 (0000ms, 8116ms total)
T1860 300:508 JLINK_ReadReg(R13 (SP))  returns 0x20000F90 (0001ms, 8117ms total)
T1860 300:509 JLINK_ReadReg(R14)  returns 0x08000225 (0000ms, 8117ms total)
T1860 300:509 JLINK_ReadReg(R15 (PC))  returns 0x08003CD8 (0000ms, 8117ms total)
T1860 300:509 JLINK_ReadReg(XPSR)  returns 0x61000000 (0000ms, 8117ms total)
T1860 300:509 JLINK_ReadReg(MSP)  returns 0x20000F90 (0000ms, 8117ms total)
T1860 300:509 JLINK_ReadReg(PSP)  returns 0x00000000 (0000ms, 8117ms total)
T1860 300:509 JLINK_ReadReg(CFBP)  returns 0x00000000 (0000ms, 8117ms total)
T1860 300:509 JLINK_ReadReg(FPSCR)  returns 0x00000000 (0004ms, 8121ms total)
T1860 300:513 JLINK_ReadReg(FPS0)  returns 0x00000000 (0000ms, 8121ms total)
T1860 300:513 JLINK_ReadReg(FPS1)  returns 0x00000000 (0000ms, 8121ms total)
T1860 300:513 JLINK_ReadReg(FPS2)  returns 0x00000000 (0000ms, 8121ms total)
T1860 300:513 JLINK_ReadReg(FPS3)  returns 0x00000000 (0000ms, 8121ms total)
T1860 300:513 JLINK_ReadReg(FPS4)  returns 0x00000000 (0001ms, 8122ms total)
T1860 300:514 JLINK_ReadReg(FPS5)  returns 0x00000000 (0000ms, 8122ms total)
T1860 300:514 JLINK_ReadReg(FPS6)  returns 0x00000000 (0000ms, 8122ms total)
T1860 300:514 JLINK_ReadReg(FPS7)  returns 0x00000000 (0000ms, 8122ms total)
T1860 300:514 JLINK_ReadReg(FPS8)  returns 0x00000000 (0000ms, 8122ms total)
T1860 300:514 JLINK_ReadReg(FPS9)  returns 0x00000000 (0000ms, 8122ms total)
T1860 300:514 JLINK_ReadReg(FPS10)  returns 0x00000000 (0000ms, 8122ms total)
T1860 300:514 JLINK_ReadReg(FPS11)  returns 0x00000000 (0000ms, 8122ms total)
T1860 300:514 JLINK_ReadReg(FPS12)  returns 0x00000000 (0000ms, 8122ms total)
T1860 300:514 JLINK_ReadReg(FPS13)  returns 0x00000000 (0000ms, 8122ms total)
T1860 300:514 JLINK_ReadReg(FPS14)  returns 0x00000000 (0000ms, 8122ms total)
T1860 300:514 JLINK_ReadReg(FPS15)  returns 0x00000000 (0000ms, 8122ms total)
T1860 300:514 JLINK_ReadReg(FPS16)  returns 0x00000000 (0000ms, 8122ms total)
T1860 300:514 JLINK_ReadReg(FPS17)  returns 0x00000000 (0000ms, 8122ms total)
T1860 300:514 JLINK_ReadReg(FPS18)  returns 0x00000000 (0000ms, 8122ms total)
T1860 300:514 JLINK_ReadReg(FPS19)  returns 0x00000000 (0000ms, 8122ms total)
T1860 300:514 JLINK_ReadReg(FPS20)  returns 0x00000000 (0000ms, 8122ms total)
T1860 300:514 JLINK_ReadReg(FPS21)  returns 0x00000000 (0000ms, 8122ms total)
T1860 300:514 JLINK_ReadReg(FPS22)  returns 0x00000000 (0001ms, 8123ms total)
T1860 300:515 JLINK_ReadReg(FPS23)  returns 0x00000000 (0000ms, 8123ms total)
T1860 300:515 JLINK_ReadReg(FPS24)  returns 0x00000000 (0000ms, 8123ms total)
T1860 300:515 JLINK_ReadReg(FPS25)  returns 0x00000000 (0000ms, 8123ms total)
T1860 300:515 JLINK_ReadReg(FPS26)  returns 0x00000000 (0000ms, 8123ms total)
T1860 300:515 JLINK_ReadReg(FPS27)  returns 0x00000000 (0000ms, 8123ms total)
T1860 300:515 JLINK_ReadReg(FPS28)  returns 0x00000000 (0000ms, 8123ms total)
T1860 300:515 JLINK_ReadReg(FPS29)  returns 0x00000000 (0000ms, 8123ms total)
T1860 300:515 JLINK_ReadReg(FPS30)  returns 0x00000000 (0000ms, 8123ms total)
T1860 300:515 JLINK_ReadReg(FPS31)  returns 0x00000000 (0000ms, 8123ms total)
T4D70 300:519 JLINK_ReadMemU32(0xE0001004, 0x0001 Items, ...) -- CPU_ReadMem(4 bytes @ 0xE0001004) - Data: FE 2E 00 00  returns 0x01 (0001ms, 8124ms total)
T4D70 300:524 JLINK_ReadMemEx(0x08003CD6, 0x0002 Bytes, ..., AccessWidth = 33554432)Mis-aligned memory read: Address: 0x08003CD6, NumBytes: 2, Alignment: 2 (Halfword-aligned)
  ***** Mis-aligned memory read: Address: 0x08003CD6, NumBytes: 2, Alignment: 2 (Halfword-aligned) -- CPU_ReadMem(64 bytes @ 0x08003CC0) -- Updating DA cache (64 bytes @ 0x08003CC0) -- Read from DA cache (2 bytes @ 0x08003CD6) - Data: 70 47  returns 0x02 (0000ms, 8124ms total)
T4D70 300:525 JLINK_ReadMemEx(0x08003CD8, 0x003C Bytes, ..., AccessWidth = 33554432)Mis-aligned memory read: Address: 0x08003CD8, NumBytes: 60, Alignment: 2 (Halfword-aligned)
  ***** Mis-aligned memory read: Address: 0x08003CD8, NumBytes: 60, Alignment: 2 (Halfword-aligned) -- CPU_ReadMem(64 bytes @ 0x08003D00) -- Updating DA cache (64 bytes @ 0x08003D00) -- Read from DA cache (60 bytes @ 0x08003CD8) - Data: 82 B0 82 48 4F F4 7A 71 00 24 00 68 B0 FB F1 F0 ...  returns 0x3C (0000ms, 8124ms total)
T4D70 300:525 JLINK_ReadMemEx(0x08003CD8, 0x0002 Bytes, ..., AccessWidth = 33554432)Mis-aligned memory read: Address: 0x08003CD8, NumBytes: 2, Alignment: 2 (Halfword-aligned)
  ***** Mis-aligned memory read: Address: 0x08003CD8, NumBytes: 2, Alignment: 2 (Halfword-aligned) -- Read from DA cache (2 bytes @ 0x08003CD8) - Data: 82 B0  returns 0x02 (0000ms, 8124ms total)
T4D70 300:526 JLINK_ReadMemEx(0x08003CD8, 0x003C Bytes, ..., AccessWidth = 33554432)Mis-aligned memory read: Address: 0x08003CD8, NumBytes: 60, Alignment: 2 (Halfword-aligned)
  ***** Mis-aligned memory read: Address: 0x08003CD8, NumBytes: 60, Alignment: 2 (Halfword-aligned) -- Read from DA cache (60 bytes @ 0x08003CD8) - Data: 82 B0 82 48 4F F4 7A 71 00 24 00 68 B0 FB F1 F0 ...  returns 0x3C (0000ms, 8124ms total)
T4D70 300:526 JLINK_ReadMemEx(0x08003CD8, 0x0002 Bytes, ..., AccessWidth = 33554432)Mis-aligned memory read: Address: 0x08003CD8, NumBytes: 2, Alignment: 2 (Halfword-aligned)
  ***** Mis-aligned memory read: Address: 0x08003CD8, NumBytes: 2, Alignment: 2 (Halfword-aligned) -- Read from DA cache (2 bytes @ 0x08003CD8) - Data: 82 B0  returns 0x02 (0000ms, 8124ms total)
T4D70 300:526 JLINK_ReadMemEx(0x08003CDA, 0x0002 Bytes, ..., AccessWidth = 33554432)Mis-aligned memory read: Address: 0x08003CDA, NumBytes: 2, Alignment: 2 (Halfword-aligned)
  ***** Mis-aligned memory read: Address: 0x08003CDA, NumBytes: 2, Alignment: 2 (Halfword-aligned) -- Read from DA cache (2 bytes @ 0x08003CDA) - Data: 82 48  returns 0x02 (0000ms, 8124ms total)
T1860 311:076 JLINK_ReadMemEx(0x08003CD8, 0x0002 Bytes, ..., AccessWidth = 33554432)Mis-aligned memory read: Address: 0x08003CD8, NumBytes: 2, Alignment: 2 (Halfword-aligned)
  ***** Mis-aligned memory read: Address: 0x08003CD8, NumBytes: 2, Alignment: 2 (Halfword-aligned) -- Read from DA cache (2 bytes @ 0x08003CD8) - Data: 82 B0  returns 0x02 (0002ms, 8126ms total)
T1860 311:078 JLINK_Step() -- Read from DA cache (2 bytes @ 0x08003CD8) -- Simulated  returns 0x00 (0000ms, 8126ms total)
T1860 311:078 JLINK_ReadReg(R15 (PC))  returns 0x08003CDA (0000ms, 8126ms total)
T1860 311:078 JLINK_ReadReg(XPSR)  returns 0x61000000 (0000ms, 8126ms total)
T1860 311:079 JLINK_ReadReg(R0)  returns 0x08003CD9 (0000ms, 8127ms total)
T1860 311:079 JLINK_ReadReg(R1)  returns 0x20000F90 (0000ms, 8127ms total)
T1860 311:079 JLINK_ReadReg(R2)  returns 0x00000000 (0000ms, 8127ms total)
T1860 311:079 JLINK_ReadReg(R3)  returns 0x0800428F (0000ms, 8127ms total)
T1860 311:079 JLINK_ReadReg(R4)  returns 0x08005610 (0000ms, 8127ms total)
T1860 311:079 JLINK_ReadReg(R5)  returns 0x08005610 (0000ms, 8127ms total)
T1860 311:079 JLINK_ReadReg(R6)  returns 0x00000000 (0000ms, 8127ms total)
T1860 311:079 JLINK_ReadReg(R7)  returns 0x00000000 (0000ms, 8127ms total)
T1860 311:079 JLINK_ReadReg(R8)  returns 0x00000000 (0000ms, 8127ms total)
T1860 311:079 JLINK_ReadReg(R9)  returns 0x00000000 (0000ms, 8127ms total)
T1860 311:079 JLINK_ReadReg(R10)  returns 0x00000000 (0000ms, 8127ms total)
T1860 311:079 JLINK_ReadReg(R11)  returns 0x00000000 (0001ms, 8128ms total)
T1860 311:080 JLINK_ReadReg(R12)  returns 0x00000000 (0000ms, 8128ms total)
T1860 311:080 JLINK_ReadReg(R13 (SP))  returns 0x20000F88 (0000ms, 8128ms total)
T1860 311:080 JLINK_ReadReg(R14)  returns 0x08000225 (0000ms, 8128ms total)
T1860 311:080 JLINK_ReadReg(R15 (PC))  returns 0x08003CDA (0000ms, 8128ms total)
T1860 311:080 JLINK_ReadReg(XPSR)  returns 0x61000000 (0000ms, 8128ms total)
T1860 311:080 JLINK_ReadReg(MSP)  returns 0x20000F88 (0000ms, 8128ms total)
T1860 311:080 JLINK_ReadReg(PSP)  returns 0x00000000 (0000ms, 8128ms total)
T1860 311:080 JLINK_ReadReg(CFBP)  returns 0x00000000 (0000ms, 8128ms total)
T1860 311:080 JLINK_ReadReg(FPSCR)  returns 0x00000000 (0000ms, 8128ms total)
T1860 311:080 JLINK_ReadReg(FPS0)  returns 0x00000000 (0000ms, 8128ms total)
T1860 311:080 JLINK_ReadReg(FPS1)  returns 0x00000000 (0000ms, 8128ms total)
T1860 311:080 JLINK_ReadReg(FPS2)  returns 0x00000000 (0000ms, 8128ms total)
T1860 311:080 JLINK_ReadReg(FPS3)  returns 0x00000000 (0000ms, 8128ms total)
T1860 311:080 JLINK_ReadReg(FPS4)  returns 0x00000000 (0001ms, 8129ms total)
T1860 311:081 JLINK_ReadReg(FPS5)  returns 0x00000000 (0000ms, 8129ms total)
T1860 311:081 JLINK_ReadReg(FPS6)  returns 0x00000000 (0000ms, 8129ms total)
T1860 311:081 JLINK_ReadReg(FPS7)  returns 0x00000000 (0000ms, 8129ms total)
T1860 311:081 JLINK_ReadReg(FPS8)  returns 0x00000000 (0000ms, 8129ms total)
T1860 311:081 JLINK_ReadReg(FPS9)  returns 0x00000000 (0000ms, 8129ms total)
T1860 311:081 JLINK_ReadReg(FPS10)  returns 0x00000000 (0000ms, 8129ms total)
T1860 311:081 JLINK_ReadReg(FPS11)  returns 0x00000000 (0000ms, 8129ms total)
T1860 311:081 JLINK_ReadReg(FPS12)  returns 0x00000000 (0000ms, 8129ms total)
T1860 311:081 JLINK_ReadReg(FPS13)  returns 0x00000000 (0000ms, 8129ms total)
T1860 311:081 JLINK_ReadReg(FPS14)  returns 0x00000000 (0000ms, 8129ms total)
T1860 311:081 JLINK_ReadReg(FPS15)  returns 0x00000000 (0000ms, 8129ms total)
T1860 311:081 JLINK_ReadReg(FPS16)  returns 0x00000000 (0000ms, 8129ms total)
T1860 311:081 JLINK_ReadReg(FPS17)  returns 0x00000000 (0000ms, 8129ms total)
T1860 311:081 JLINK_ReadReg(FPS18)  returns 0x00000000 (0001ms, 8130ms total)
T1860 311:082 JLINK_ReadReg(FPS19)  returns 0x00000000 (0000ms, 8130ms total)
T1860 311:082 JLINK_ReadReg(FPS20)  returns 0x00000000 (0000ms, 8130ms total)
T1860 311:082 JLINK_ReadReg(FPS21)  returns 0x00000000 (0000ms, 8130ms total)
T1860 311:082 JLINK_ReadReg(FPS22)  returns 0x00000000 (0000ms, 8130ms total)
T1860 311:082 JLINK_ReadReg(FPS23)  returns 0x00000000 (0000ms, 8130ms total)
T1860 311:082 JLINK_ReadReg(FPS24)  returns 0x00000000 (0000ms, 8130ms total)
T1860 311:082 JLINK_ReadReg(FPS25)  returns 0x00000000 (0000ms, 8130ms total)
T1860 311:082 JLINK_ReadReg(FPS26)  returns 0x00000000 (0000ms, 8130ms total)
T1860 311:082 JLINK_ReadReg(FPS27)  returns 0x00000000 (0000ms, 8130ms total)
T1860 311:082 JLINK_ReadReg(FPS28)  returns 0x00000000 (0000ms, 8130ms total)
T1860 311:082 JLINK_ReadReg(FPS29)  returns 0x00000000 (0000ms, 8130ms total)
T1860 311:082 JLINK_ReadReg(FPS30)  returns 0x00000000 (0000ms, 8130ms total)
T1860 311:082 JLINK_ReadReg(FPS31)  returns 0x00000000 (0000ms, 8130ms total)
T4D70 311:083 JLINK_ReadMemEx(0x08003CD8, 0x003C Bytes, ..., AccessWidth = 33554432)Mis-aligned memory read: Address: 0x08003CD8, NumBytes: 60, Alignment: 2 (Halfword-aligned)
  ***** Mis-aligned memory read: Address: 0x08003CD8, NumBytes: 60, Alignment: 2 (Halfword-aligned) -- Read from DA cache (60 bytes @ 0x08003CD8) - Data: 82 B0 82 48 4F F4 7A 71 00 24 00 68 B0 FB F1 F0 ...  returns 0x3C (0000ms, 8130ms total)
T4D70 311:083 JLINK_ReadMemEx(0x08003CD8, 0x0002 Bytes, ..., AccessWidth = 33554432)Mis-aligned memory read: Address: 0x08003CD8, NumBytes: 2, Alignment: 2 (Halfword-aligned)
  ***** Mis-aligned memory read: Address: 0x08003CD8, NumBytes: 2, Alignment: 2 (Halfword-aligned) -- Read from DA cache (2 bytes @ 0x08003CD8) - Data: 82 B0  returns 0x02 (0000ms, 8130ms total)
T4D70 311:083 JLINK_ReadMemEx(0x08003CDA, 0x0002 Bytes, ..., AccessWidth = 33554432)Mis-aligned memory read: Address: 0x08003CDA, NumBytes: 2, Alignment: 2 (Halfword-aligned)
  ***** Mis-aligned memory read: Address: 0x08003CDA, NumBytes: 2, Alignment: 2 (Halfword-aligned) -- Read from DA cache (2 bytes @ 0x08003CDA) - Data: 82 48  returns 0x02 (0000ms, 8130ms total)
T4D70 311:083 JLINK_ReadMemEx(0x08003CDA, 0x0002 Bytes, ..., AccessWidth = 33554432)Mis-aligned memory read: Address: 0x08003CDA, NumBytes: 2, Alignment: 2 (Halfword-aligned)
  ***** Mis-aligned memory read: Address: 0x08003CDA, NumBytes: 2, Alignment: 2 (Halfword-aligned) -- Read from DA cache (2 bytes @ 0x08003CDA) - Data: 82 48  returns 0x02 (0000ms, 8130ms total)
T4D70 311:083 JLINK_ReadMemEx(0x08003CDC, 0x003C Bytes, ..., AccessWidth = 33554432)Mis-aligned memory read: Address: 0x08003CDC, NumBytes: 60, Alignment: 2 (Halfword-aligned)
  ***** Mis-aligned memory read: Address: 0x08003CDC, NumBytes: 60, Alignment: 2 (Halfword-aligned) -- Read from DA cache (60 bytes @ 0x08003CDC) - Data: 4F F4 7A 71 00 24 00 68 B0 FB F1 F0 01 38 B4 EB ...  returns 0x3C (0000ms, 8130ms total)
T4D70 311:083 JLINK_ReadMemEx(0x08003CDC, 0x0002 Bytes, ..., AccessWidth = 33554432)Mis-aligned memory read: Address: 0x08003CDC, NumBytes: 2, Alignment: 2 (Halfword-aligned)
  ***** Mis-aligned memory read: Address: 0x08003CDC, NumBytes: 2, Alignment: 2 (Halfword-aligned) -- Read from DA cache (2 bytes @ 0x08003CDC) - Data: 4F F4  returns 0x02 (0001ms, 8131ms total)
T4D70 311:084 JLINK_ReadMemEx(0x08003CDC, 0x003C Bytes, ..., AccessWidth = 33554432)Mis-aligned memory read: Address: 0x08003CDC, NumBytes: 60, Alignment: 2 (Halfword-aligned)
  ***** Mis-aligned memory read: Address: 0x08003CDC, NumBytes: 60, Alignment: 2 (Halfword-aligned) -- Read from DA cache (60 bytes @ 0x08003CDC) - Data: 4F F4 7A 71 00 24 00 68 B0 FB F1 F0 01 38 B4 EB ...  returns 0x3C (0000ms, 8131ms total)
T4D70 311:084 JLINK_ReadMemEx(0x08003CDC, 0x0002 Bytes, ..., AccessWidth = 33554432)Mis-aligned memory read: Address: 0x08003CDC, NumBytes: 2, Alignment: 2 (Halfword-aligned)
  ***** Mis-aligned memory read: Address: 0x08003CDC, NumBytes: 2, Alignment: 2 (Halfword-aligned) -- Read from DA cache (2 bytes @ 0x08003CDC) - Data: 4F F4  returns 0x02 (0000ms, 8131ms total)
T4D70 311:084 JLINK_ReadMemEx(0x08003CDE, 0x0002 Bytes, ..., AccessWidth = 33554432)Mis-aligned memory read: Address: 0x08003CDE, NumBytes: 2, Alignment: 2 (Halfword-aligned)
  ***** Mis-aligned memory read: Address: 0x08003CDE, NumBytes: 2, Alignment: 2 (Halfword-aligned) -- Read from DA cache (2 bytes @ 0x08003CDE) - Data: 7A 71  returns 0x02 (0000ms, 8131ms total)
T4D70 311:084 JLINK_ReadMemEx(0x08003CE0, 0x003C Bytes, ..., AccessWidth = 33554432)Mis-aligned memory read: Address: 0x08003CE0, NumBytes: 60, Alignment: 2 (Halfword-aligned)
  ***** Mis-aligned memory read: Address: 0x08003CE0, NumBytes: 60, Alignment: 2 (Halfword-aligned) -- Read from DA cache (60 bytes @ 0x08003CE0) - Data: 00 24 00 68 B0 FB F1 F0 01 38 B4 EB 10 6F 07 D1 ...  returns 0x3C (0000ms, 8131ms total)
T4D70 311:084 JLINK_ReadMemEx(0x08003CE0, 0x0002 Bytes, ..., AccessWidth = 33554432)Mis-aligned memory read: Address: 0x08003CE0, NumBytes: 2, Alignment: 2 (Halfword-aligned)
  ***** Mis-aligned memory read: Address: 0x08003CE0, NumBytes: 2, Alignment: 2 (Halfword-aligned) -- Read from DA cache (2 bytes @ 0x08003CE0) - Data: 00 24  returns 0x02 (0000ms, 8131ms total)
T4D70 311:084 JLINK_ReadMemEx(0x08003CE2, 0x0002 Bytes, ..., AccessWidth = 33554432)Mis-aligned memory read: Address: 0x08003CE2, NumBytes: 2, Alignment: 2 (Halfword-aligned)
  ***** Mis-aligned memory read: Address: 0x08003CE2, NumBytes: 2, Alignment: 2 (Halfword-aligned) -- Read from DA cache (2 bytes @ 0x08003CE2) - Data: 00 68  returns 0x02 (0001ms, 8132ms total)
T4D70 311:085 JLINK_ReadMemEx(0x08003CE2, 0x0002 Bytes, ..., AccessWidth = 33554432)Mis-aligned memory read: Address: 0x08003CE2, NumBytes: 2, Alignment: 2 (Halfword-aligned)
  ***** Mis-aligned memory read: Address: 0x08003CE2, NumBytes: 2, Alignment: 2 (Halfword-aligned) -- Read from DA cache (2 bytes @ 0x08003CE2) - Data: 00 68  returns 0x02 (0000ms, 8132ms total)
T4D70 311:085 JLINK_ReadMemEx(0x08003CE4, 0x003C Bytes, ..., AccessWidth = 33554432)Mis-aligned memory read: Address: 0x08003CE4, NumBytes: 60, Alignment: 2 (Halfword-aligned)
  ***** Mis-aligned memory read: Address: 0x08003CE4, NumBytes: 60, Alignment: 2 (Halfword-aligned) -- Read from DA cache (60 bytes @ 0x08003CE4) - Data: B0 FB F1 F0 01 38 B4 EB 10 6F 07 D1 7D 49 F0 22 ...  returns 0x3C (0000ms, 8132ms total)
T4D70 311:085 JLINK_ReadMemEx(0x08003CE4, 0x0002 Bytes, ..., AccessWidth = 33554432)Mis-aligned memory read: Address: 0x08003CE4, NumBytes: 2, Alignment: 2 (Halfword-aligned)
  ***** Mis-aligned memory read: Address: 0x08003CE4, NumBytes: 2, Alignment: 2 (Halfword-aligned) -- Read from DA cache (2 bytes @ 0x08003CE4) - Data: B0 FB  returns 0x02 (0000ms, 8132ms total)
T1860 311:716 JLINK_ReadMemEx(0x08003CDA, 0x0002 Bytes, ..., AccessWidth = 33554432)Mis-aligned memory read: Address: 0x08003CDA, NumBytes: 2, Alignment: 2 (Halfword-aligned)
  ***** Mis-aligned memory read: Address: 0x08003CDA, NumBytes: 2, Alignment: 2 (Halfword-aligned) -- Read from DA cache (2 bytes @ 0x08003CDA) - Data: 82 48  returns 0x02 (0002ms, 8134ms total)
T1860 311:718 JLINK_Step() -- Read from DA cache (2 bytes @ 0x08003CDA) -- Not simulated -- CPU_WriteMem(4 bytes @ 0xE0002008) -- CPU_WriteMem(4 bytes @ 0xE0001004)  returns 0x00 (0006ms, 8140ms total)
T1860 311:724 JLINK_ReadReg(R15 (PC))  returns 0x08003CDC (0000ms, 8140ms total)
T1860 311:724 JLINK_ReadReg(XPSR)  returns 0x61000000 (0000ms, 8140ms total)
T1860 311:724 JLINK_Step() -- CPU_ReadMem(64 bytes @ 0x08003CC0) -- Updating DA cache (64 bytes @ 0x08003CC0) -- Read from DA cache (2 bytes @ 0x08003CDC) -- CPU_ReadMem(4 bytes @ 0xE0001004) -- Not simulated  returns 0x00 (0006ms, 8146ms total)
T1860 311:730 JLINK_ReadReg(R15 (PC))  returns 0x08003CE0 (0000ms, 8146ms total)
T1860 311:730 JLINK_ReadReg(XPSR)  returns 0x61000000 (0000ms, 8146ms total)
T1860 311:730 JLINK_ReadMemEx(0x08003CDE, 0x0002 Bytes, ..., AccessWidth = 33554432)Mis-aligned memory read: Address: 0x08003CDE, NumBytes: 2, Alignment: 2 (Halfword-aligned)
  ***** Mis-aligned memory read: Address: 0x08003CDE, NumBytes: 2, Alignment: 2 (Halfword-aligned) -- CPU_ReadMem(64 bytes @ 0x08003CC0) -- Updating DA cache (64 bytes @ 0x08003CC0) -- Read from DA cache (2 bytes @ 0x08003CDE) - Data: 7A 71  returns 0x02 (0001ms, 8147ms total)
T1860 311:731 JLINK_ReadMemEx(0x08003CE0, 0x003C Bytes, ..., AccessWidth = 33554432)Mis-aligned memory read: Address: 0x08003CE0, NumBytes: 60, Alignment: 2 (Halfword-aligned)
  ***** Mis-aligned memory read: Address: 0x08003CE0, NumBytes: 60, Alignment: 2 (Halfword-aligned) -- CPU_ReadMem(64 bytes @ 0x08003D00) -- Updating DA cache (64 bytes @ 0x08003D00) -- Read from DA cache (60 bytes @ 0x08003CE0) - Data: 00 24 00 68 B0 FB F1 F0 01 38 B4 EB 10 6F 07 D1 ...  returns 0x3C (0001ms, 8148ms total)
T1860 311:732 JLINK_ReadMemEx(0x08003CE0, 0x0002 Bytes, ..., AccessWidth = 33554432)Mis-aligned memory read: Address: 0x08003CE0, NumBytes: 2, Alignment: 2 (Halfword-aligned)
  ***** Mis-aligned memory read: Address: 0x08003CE0, NumBytes: 2, Alignment: 2 (Halfword-aligned) -- Read from DA cache (2 bytes @ 0x08003CE0) - Data: 00 24  returns 0x02 (0000ms, 8148ms total)
T1860 311:732 JLINK_Step() -- Read from DA cache (2 bytes @ 0x08003CE0) -- CPU_ReadMem(4 bytes @ 0xE0001004) -- Simulated  returns 0x00 (0001ms, 8149ms total)
T1860 311:733 JLINK_ReadReg(R15 (PC))  returns 0x08003CE2 (0000ms, 8149ms total)
T1860 311:733 JLINK_ReadReg(XPSR)  returns 0x61000000 (0000ms, 8149ms total)
T1860 311:733 JLINK_Step() -- Read from DA cache (2 bytes @ 0x08003CE2) -- Not simulated -- CPU_WriteMem(4 bytes @ 0xE0001004)  returns 0x00 (0005ms, 8154ms total)
T1860 311:738 JLINK_ReadReg(R15 (PC))  returns 0x08003CE4 (0000ms, 8154ms total)
T1860 311:738 JLINK_ReadReg(XPSR)  returns 0x61000000 (0000ms, 8154ms total)
T1860 311:738 JLINK_ReadMemEx(0x08003CE4, 0x003C Bytes, ..., AccessWidth = 33554432)Mis-aligned memory read: Address: 0x08003CE4, NumBytes: 60, Alignment: 2 (Halfword-aligned)
  ***** Mis-aligned memory read: Address: 0x08003CE4, NumBytes: 60, Alignment: 2 (Halfword-aligned) -- CPU_ReadMem(128 bytes @ 0x08003CC0) -- Updating DA cache (128 bytes @ 0x08003CC0) -- Read from DA cache (60 bytes @ 0x08003CE4) - Data: B0 FB F1 F0 01 38 B4 EB 10 6F 07 D1 7D 49 F0 22 ...  returns 0x3C (0002ms, 8156ms total)
T1860 311:740 JLINK_ReadMemEx(0x08003CE4, 0x0002 Bytes, ..., AccessWidth = 33554432)Mis-aligned memory read: Address: 0x08003CE4, NumBytes: 2, Alignment: 2 (Halfword-aligned)
  ***** Mis-aligned memory read: Address: 0x08003CE4, NumBytes: 2, Alignment: 2 (Halfword-aligned) -- Read from DA cache (2 bytes @ 0x08003CE4) - Data: B0 FB  returns 0x02 (0000ms, 8156ms total)
T1860 311:740 JLINK_ReadMemEx(0x08003CE6, 0x0002 Bytes, ..., AccessWidth = 33554432)Mis-aligned memory read: Address: 0x08003CE6, NumBytes: 2, Alignment: 2 (Halfword-aligned)
  ***** Mis-aligned memory read: Address: 0x08003CE6, NumBytes: 2, Alignment: 2 (Halfword-aligned) -- Read from DA cache (2 bytes @ 0x08003CE6) - Data: F1 F0  returns 0x02 (0000ms, 8156ms total)
T1860 311:740 JLINK_Step() -- Read from DA cache (2 bytes @ 0x08003CE4) -- CPU_ReadMem(4 bytes @ 0xE0001004) -- Not simulated  returns 0x00 (0005ms, 8161ms total)
T1860 311:745 JLINK_ReadReg(R15 (PC))  returns 0x08003CE8 (0000ms, 8161ms total)
T1860 311:745 JLINK_ReadReg(XPSR)  returns 0x61000000 (0000ms, 8161ms total)
T1860 311:745 JLINK_SetBPEx(Addr = 0x08003D00, Type = 0xFFFFFFF2)  returns 0x00000002 (0000ms, 8161ms total)
T1860 311:745 JLINK_Go() -- CPU_WriteMem(4 bytes @ 0xE0002008) (0000ms, 8161ms total)
T1860 311:847 JLINK_IsHalted()  returns TRUE (0003ms, 8165ms total)
T1860 311:850 JLINK_Halt()  returns 0x00 (0000ms, 8162ms total)
T1860 311:850 JLINK_IsHalted()  returns TRUE (0000ms, 8162ms total)
T1860 311:850 JLINK_IsHalted()  returns TRUE (0001ms, 8163ms total)
T1860 311:851 JLINK_IsHalted()  returns TRUE (0000ms, 8162ms total)
T1860 311:851 JLINK_ReadReg(R15 (PC))  returns 0x08003D00 (0000ms, 8162ms total)
T1860 311:851 JLINK_ReadReg(XPSR)  returns 0x21000000 (0000ms, 8162ms total)
T1860 311:851 JLINK_ClrBPEx(BPHandle = 0x00000002)  returns 0x00 (0000ms, 8162ms total)
T1860 311:851 JLINK_ReadMemU32(0xE000ED30, 0x0001 Items, ...) -- CPU_ReadMem(4 bytes @ 0xE000ED30) - Data: 03 00 00 00  returns 0x01 (0001ms, 8163ms total)
T1860 311:852 JLINK_ReadMemU32(0xE0001028, 0x0001 Items, ...) -- CPU_ReadMem(4 bytes @ 0xE0001028) - Data: 00 00 00 00  returns 0x01 (0001ms, 8164ms total)
T1860 311:853 JLINK_ReadMemU32(0xE0001038, 0x0001 Items, ...) -- CPU_ReadMem(4 bytes @ 0xE0001038) - Data: 00 02 00 00  returns 0x01 (0001ms, 8165ms total)
T1860 311:854 JLINK_ReadMemU32(0xE0001048, 0x0001 Items, ...) -- CPU_ReadMem(4 bytes @ 0xE0001048) - Data: 00 00 00 00  returns 0x01 (0000ms, 8165ms total)
T1860 311:854 JLINK_ReadMemU32(0xE0001058, 0x0001 Items, ...) -- CPU_ReadMem(4 bytes @ 0xE0001058) - Data: 00 00 00 00  returns 0x01 (0001ms, 8166ms total)
T1860 311:855 JLINK_ReadReg(R0)  returns 0x00000007 (0000ms, 8166ms total)
T1860 311:856 JLINK_ReadReg(R1)  returns 0xE000E010 (0000ms, 8166ms total)
T1860 311:856 JLINK_ReadReg(R2)  returns 0x000000F0 (0000ms, 8166ms total)
T1860 311:856 JLINK_ReadReg(R3)  returns 0x0800428F (0000ms, 8166ms total)
T1860 311:856 JLINK_ReadReg(R4)  returns 0x00000000 (0000ms, 8166ms total)
T1860 311:856 JLINK_ReadReg(R5)  returns 0x08005610 (0000ms, 8166ms total)
T1860 311:856 JLINK_ReadReg(R6)  returns 0x00000000 (0000ms, 8166ms total)
T1860 311:856 JLINK_ReadReg(R7)  returns 0x00000000 (0000ms, 8166ms total)
T1860 311:856 JLINK_ReadReg(R8)  returns 0x00000000 (0001ms, 8167ms total)
T1860 311:857 JLINK_ReadReg(R9)  returns 0x00000000 (0000ms, 8167ms total)
T1860 311:857 JLINK_ReadReg(R10)  returns 0x00000000 (0000ms, 8167ms total)
T1860 311:857 JLINK_ReadReg(R11)  returns 0x00000000 (0000ms, 8167ms total)
T1860 311:857 JLINK_ReadReg(R12)  returns 0x00000000 (0000ms, 8167ms total)
T1860 311:857 JLINK_ReadReg(R13 (SP))  returns 0x20000F88 (0000ms, 8167ms total)
T1860 311:857 JLINK_ReadReg(R14)  returns 0x08000225 (0000ms, 8167ms total)
T1860 311:857 JLINK_ReadReg(R15 (PC))  returns 0x08003D00 (0000ms, 8167ms total)
T1860 311:857 JLINK_ReadReg(XPSR)  returns 0x21000000 (0001ms, 8168ms total)
T1860 311:858 JLINK_ReadReg(MSP)  returns 0x20000F88 (0000ms, 8168ms total)
T1860 311:858 JLINK_ReadReg(PSP)  returns 0x00000000 (0000ms, 8168ms total)
T1860 311:858 JLINK_ReadReg(CFBP)  returns 0x00000000 (0000ms, 8168ms total)
T1860 311:858 JLINK_ReadReg(FPSCR)  returns 0x00000000 (0005ms, 8173ms total)
T1860 311:863 JLINK_ReadReg(FPS0)  returns 0x00000000 (0000ms, 8173ms total)
T1860 311:863 JLINK_ReadReg(FPS1)  returns 0x00000000 (0000ms, 8173ms total)
T1860 311:863 JLINK_ReadReg(FPS2)  returns 0x00000000 (0000ms, 8173ms total)
T1860 311:863 JLINK_ReadReg(FPS3)  returns 0x00000000 (0000ms, 8173ms total)
T1860 311:863 JLINK_ReadReg(FPS4)  returns 0x00000000 (0000ms, 8173ms total)
T1860 311:863 JLINK_ReadReg(FPS5)  returns 0x00000000 (0000ms, 8173ms total)
T1860 311:863 JLINK_ReadReg(FPS6)  returns 0x00000000 (0001ms, 8174ms total)
T1860 311:864 JLINK_ReadReg(FPS7)  returns 0x00000000 (0000ms, 8174ms total)
T1860 311:864 JLINK_ReadReg(FPS8)  returns 0x00000000 (0000ms, 8174ms total)
T1860 311:864 JLINK_ReadReg(FPS9)  returns 0x00000000 (0000ms, 8174ms total)
T1860 311:864 JLINK_ReadReg(FPS10)  returns 0x00000000 (0000ms, 8174ms total)
T1860 311:864 JLINK_ReadReg(FPS11)  returns 0x00000000 (0000ms, 8174ms total)
T1860 311:864 JLINK_ReadReg(FPS12)  returns 0x00000000 (0000ms, 8174ms total)
T1860 311:864 JLINK_ReadReg(FPS13)  returns 0x00000000 (0000ms, 8174ms total)
T1860 311:864 JLINK_ReadReg(FPS14)  returns 0x00000000 (0001ms, 8175ms total)
T1860 311:865 JLINK_ReadReg(FPS15)  returns 0x00000000 (0000ms, 8175ms total)
T1860 311:865 JLINK_ReadReg(FPS16)  returns 0x00000000 (0000ms, 8175ms total)
T1860 311:865 JLINK_ReadReg(FPS17)  returns 0x00000000 (0000ms, 8175ms total)
T1860 311:865 JLINK_ReadReg(FPS18)  returns 0x00000000 (0000ms, 8175ms total)
T1860 311:865 JLINK_ReadReg(FPS19)  returns 0x00000000 (0000ms, 8175ms total)
T1860 311:865 JLINK_ReadReg(FPS20)  returns 0x00000000 (0000ms, 8175ms total)
T1860 311:865 JLINK_ReadReg(FPS21)  returns 0x00000000 (0000ms, 8175ms total)
T1860 311:866 JLINK_ReadReg(FPS22)  returns 0x00000000 (0000ms, 8176ms total)
T1860 311:866 JLINK_ReadReg(FPS23)  returns 0x00000000 (0000ms, 8176ms total)
T1860 311:866 JLINK_ReadReg(FPS24)  returns 0x00000000 (0000ms, 8176ms total)
T1860 311:866 JLINK_ReadReg(FPS25)  returns 0x00000000 (0000ms, 8176ms total)
T1860 311:866 JLINK_ReadReg(FPS26)  returns 0x00000000 (0000ms, 8176ms total)
T1860 311:866 JLINK_ReadReg(FPS27)  returns 0x00000000 (0000ms, 8176ms total)
T1860 311:866 JLINK_ReadReg(FPS28)  returns 0x00000000 (0000ms, 8176ms total)
T1860 311:866 JLINK_ReadReg(FPS29)  returns 0x00000000 (0001ms, 8177ms total)
T1860 311:867 JLINK_ReadReg(FPS30)  returns 0x00000000 (0000ms, 8177ms total)
T1860 311:867 JLINK_ReadReg(FPS31)  returns 0x00000000 (0000ms, 8177ms total)
T4D70 311:867 JLINK_ReadMemEx(0x08003CDA, 0x0002 Bytes, ..., AccessWidth = 33554432)Mis-aligned memory read: Address: 0x08003CDA, NumBytes: 2, Alignment: 2 (Halfword-aligned)
  ***** Mis-aligned memory read: Address: 0x08003CDA, NumBytes: 2, Alignment: 2 (Halfword-aligned) -- CPU_ReadMem(64 bytes @ 0x08003CC0) -- Updating DA cache (64 bytes @ 0x08003CC0) -- Read from DA cache (2 bytes @ 0x08003CDA) - Data: 82 48  returns 0x02 (0002ms, 8179ms total)
T4D70 311:869 JLINK_ReadMemEx(0x08003CDC, 0x003C Bytes, ..., AccessWidth = 33554432)Mis-aligned memory read: Address: 0x08003CDC, NumBytes: 60, Alignment: 2 (Halfword-aligned)
  ***** Mis-aligned memory read: Address: 0x08003CDC, NumBytes: 60, Alignment: 2 (Halfword-aligned) -- CPU_ReadMem(64 bytes @ 0x08003D00) -- Updating DA cache (64 bytes @ 0x08003D00) -- Read from DA cache (60 bytes @ 0x08003CDC) - Data: 4F F4 7A 71 00 24 00 68 B0 FB F1 F0 01 38 B4 EB ...  returns 0x3C (0001ms, 8180ms total)
T4D70 311:870 JLINK_ReadMemEx(0x08003CDC, 0x0002 Bytes, ..., AccessWidth = 33554432)Mis-aligned memory read: Address: 0x08003CDC, NumBytes: 2, Alignment: 2 (Halfword-aligned)
  ***** Mis-aligned memory read: Address: 0x08003CDC, NumBytes: 2, Alignment: 2 (Halfword-aligned) -- Read from DA cache (2 bytes @ 0x08003CDC) - Data: 4F F4  returns 0x02 (0000ms, 8180ms total)
T4D70 311:870 JLINK_ReadMemEx(0x08003CDC, 0x003C Bytes, ..., AccessWidth = 33554432)Mis-aligned memory read: Address: 0x08003CDC, NumBytes: 60, Alignment: 2 (Halfword-aligned)
  ***** Mis-aligned memory read: Address: 0x08003CDC, NumBytes: 60, Alignment: 2 (Halfword-aligned) -- Read from DA cache (60 bytes @ 0x08003CDC) - Data: 4F F4 7A 71 00 24 00 68 B0 FB F1 F0 01 38 B4 EB ...  returns 0x3C (0000ms, 8180ms total)
T4D70 311:870 JLINK_ReadMemEx(0x08003CDC, 0x0002 Bytes, ..., AccessWidth = 33554432)Mis-aligned memory read: Address: 0x08003CDC, NumBytes: 2, Alignment: 2 (Halfword-aligned)
  ***** Mis-aligned memory read: Address: 0x08003CDC, NumBytes: 2, Alignment: 2 (Halfword-aligned) -- Read from DA cache (2 bytes @ 0x08003CDC) - Data: 4F F4  returns 0x02 (0001ms, 8181ms total)
T4D70 311:871 JLINK_ReadMemEx(0x08003CDE, 0x0002 Bytes, ..., AccessWidth = 33554432)Mis-aligned memory read: Address: 0x08003CDE, NumBytes: 2, Alignment: 2 (Halfword-aligned)
  ***** Mis-aligned memory read: Address: 0x08003CDE, NumBytes: 2, Alignment: 2 (Halfword-aligned) -- Read from DA cache (2 bytes @ 0x08003CDE) - Data: 7A 71  returns 0x02 (0000ms, 8181ms total)
T4D70 311:871 JLINK_ReadMemEx(0x08003CE0, 0x003C Bytes, ..., AccessWidth = 33554432)Mis-aligned memory read: Address: 0x08003CE0, NumBytes: 60, Alignment: 2 (Halfword-aligned)
  ***** Mis-aligned memory read: Address: 0x08003CE0, NumBytes: 60, Alignment: 2 (Halfword-aligned) -- Read from DA cache (60 bytes @ 0x08003CE0) - Data: 00 24 00 68 B0 FB F1 F0 01 38 B4 EB 10 6F 07 D1 ...  returns 0x3C (0000ms, 8181ms total)
T4D70 311:871 JLINK_ReadMemEx(0x08003CE0, 0x0002 Bytes, ..., AccessWidth = 33554432)Mis-aligned memory read: Address: 0x08003CE0, NumBytes: 2, Alignment: 2 (Halfword-aligned)
  ***** Mis-aligned memory read: Address: 0x08003CE0, NumBytes: 2, Alignment: 2 (Halfword-aligned) -- Read from DA cache (2 bytes @ 0x08003CE0) - Data: 00 24  returns 0x02 (0000ms, 8181ms total)
T4D70 311:872 JLINK_ReadMemEx(0x08003CE2, 0x0002 Bytes, ..., AccessWidth = 33554432)Mis-aligned memory read: Address: 0x08003CE2, NumBytes: 2, Alignment: 2 (Halfword-aligned)
  ***** Mis-aligned memory read: Address: 0x08003CE2, NumBytes: 2, Alignment: 2 (Halfword-aligned) -- Read from DA cache (2 bytes @ 0x08003CE2) - Data: 00 68  returns 0x02 (0000ms, 8182ms total)
T4D70 311:872 JLINK_ReadMemEx(0x08003CE2, 0x0002 Bytes, ..., AccessWidth = 33554432)Mis-aligned memory read: Address: 0x08003CE2, NumBytes: 2, Alignment: 2 (Halfword-aligned)
  ***** Mis-aligned memory read: Address: 0x08003CE2, NumBytes: 2, Alignment: 2 (Halfword-aligned) -- Read from DA cache (2 bytes @ 0x08003CE2) - Data: 00 68  returns 0x02 (0000ms, 8182ms total)
T4D70 311:872 JLINK_ReadMemEx(0x08003CE4, 0x003C Bytes, ..., AccessWidth = 33554432)Mis-aligned memory read: Address: 0x08003CE4, NumBytes: 60, Alignment: 2 (Halfword-aligned)
  ***** Mis-aligned memory read: Address: 0x08003CE4, NumBytes: 60, Alignment: 2 (Halfword-aligned) -- Read from DA cache (60 bytes @ 0x08003CE4) - Data: B0 FB F1 F0 01 38 B4 EB 10 6F 07 D1 7D 49 F0 22 ...  returns 0x3C (0000ms, 8182ms total)
T4D70 311:872 JLINK_ReadMemEx(0x08003CE4, 0x0002 Bytes, ..., AccessWidth = 33554432)Mis-aligned memory read: Address: 0x08003CE4, NumBytes: 2, Alignment: 2 (Halfword-aligned)
  ***** Mis-aligned memory read: Address: 0x08003CE4, NumBytes: 2, Alignment: 2 (Halfword-aligned) -- Read from DA cache (2 bytes @ 0x08003CE4) - Data: B0 FB  returns 0x02 (0001ms, 8183ms total)
T4D70 311:873 JLINK_ReadMemEx(0x08003CE4, 0x003C Bytes, ..., AccessWidth = 33554432)Mis-aligned memory read: Address: 0x08003CE4, NumBytes: 60, Alignment: 2 (Halfword-aligned)
  ***** Mis-aligned memory read: Address: 0x08003CE4, NumBytes: 60, Alignment: 2 (Halfword-aligned) -- Read from DA cache (60 bytes @ 0x08003CE4) - Data: B0 FB F1 F0 01 38 B4 EB 10 6F 07 D1 7D 49 F0 22 ...  returns 0x3C (0000ms, 8183ms total)
T4D70 311:873 JLINK_ReadMemEx(0x08003CE4, 0x0002 Bytes, ..., AccessWidth = 33554432)Mis-aligned memory read: Address: 0x08003CE4, NumBytes: 2, Alignment: 2 (Halfword-aligned)
  ***** Mis-aligned memory read: Address: 0x08003CE4, NumBytes: 2, Alignment: 2 (Halfword-aligned) -- Read from DA cache (2 bytes @ 0x08003CE4) - Data: B0 FB  returns 0x02 (0000ms, 8183ms total)
T4D70 311:873 JLINK_ReadMemEx(0x08003CE6, 0x0002 Bytes, ..., AccessWidth = 33554432)Mis-aligned memory read: Address: 0x08003CE6, NumBytes: 2, Alignment: 2 (Halfword-aligned)
  ***** Mis-aligned memory read: Address: 0x08003CE6, NumBytes: 2, Alignment: 2 (Halfword-aligned) -- Read from DA cache (2 bytes @ 0x08003CE6) - Data: F1 F0  returns 0x02 (0001ms, 8184ms total)
T4D70 311:874 JLINK_ReadMemEx(0x08003CE8, 0x003C Bytes, ..., AccessWidth = 33554432)Mis-aligned memory read: Address: 0x08003CE8, NumBytes: 60, Alignment: 2 (Halfword-aligned)
  ***** Mis-aligned memory read: Address: 0x08003CE8, NumBytes: 60, Alignment: 2 (Halfword-aligned) -- Read from DA cache (60 bytes @ 0x08003CE8) - Data: 01 38 B4 EB 10 6F 07 D1 7D 49 F0 22 48 60 7D 48 ...  returns 0x3C (0000ms, 8184ms total)
T4D70 311:874 JLINK_ReadMemEx(0x08003CE8, 0x0002 Bytes, ..., AccessWidth = 33554432)Mis-aligned memory read: Address: 0x08003CE8, NumBytes: 2, Alignment: 2 (Halfword-aligned)
  ***** Mis-aligned memory read: Address: 0x08003CE8, NumBytes: 2, Alignment: 2 (Halfword-aligned) -- Read from DA cache (2 bytes @ 0x08003CE8) - Data: 01 38  returns 0x02 (0000ms, 8184ms total)
T4D70 311:874 JLINK_ReadMemEx(0x08003CEA, 0x0002 Bytes, ..., AccessWidth = 33554432)Mis-aligned memory read: Address: 0x08003CEA, NumBytes: 2, Alignment: 2 (Halfword-aligned)
  ***** Mis-aligned memory read: Address: 0x08003CEA, NumBytes: 2, Alignment: 2 (Halfword-aligned) -- Read from DA cache (2 bytes @ 0x08003CEA) - Data: B4 EB  returns 0x02 (0000ms, 8184ms total)
T4D70 311:874 JLINK_ReadMemEx(0x08003CEA, 0x0002 Bytes, ..., AccessWidth = 33554432)Mis-aligned memory read: Address: 0x08003CEA, NumBytes: 2, Alignment: 2 (Halfword-aligned)
  ***** Mis-aligned memory read: Address: 0x08003CEA, NumBytes: 2, Alignment: 2 (Halfword-aligned) -- Read from DA cache (2 bytes @ 0x08003CEA) - Data: B4 EB  returns 0x02 (0001ms, 8185ms total)
T4D70 311:875 JLINK_ReadMemEx(0x08003CEC, 0x003C Bytes, ..., AccessWidth = 33554432)Mis-aligned memory read: Address: 0x08003CEC, NumBytes: 60, Alignment: 2 (Halfword-aligned)
  ***** Mis-aligned memory read: Address: 0x08003CEC, NumBytes: 60, Alignment: 2 (Halfword-aligned) -- Read from DA cache (60 bytes @ 0x08003CEC) - Data: 10 6F 07 D1 7D 49 F0 22 48 60 7D 48 02 70 07 20 ...  returns 0x3C (0000ms, 8185ms total)
T4D70 311:875 JLINK_ReadMemEx(0x08003CEC, 0x0002 Bytes, ..., AccessWidth = 33554432)Mis-aligned memory read: Address: 0x08003CEC, NumBytes: 2, Alignment: 2 (Halfword-aligned)
  ***** Mis-aligned memory read: Address: 0x08003CEC, NumBytes: 2, Alignment: 2 (Halfword-aligned) -- Read from DA cache (2 bytes @ 0x08003CEC) - Data: 10 6F  returns 0x02 (0000ms, 8185ms total)
